
T28D0 003:733 SEGGER J-Link V6.46 Log File (0001ms, 0002ms total)
T28D0 003:733 DLL Compiled: May 23 2019 17:49:56 (0001ms, 0002ms total)
T28D0 003:733 Logging started @ 2021-07-16 17:54 (0001ms, 0002ms total)
T28D0 003:734 JLINK_SetWarnOutHandler(...) (0000ms, 0002ms total)
T28D0 003:734 JLINK_OpenEx(...)
Firmware: J-Link ARM V8 compiled Nov 28 2014 13:44:46
Hardware: V8.00
S/N: 788594195
Feature(s): RDI,FlashDL,FlashBP,JFlash,GDB
TELNET listener socket opened on port 19021WEBSRV 
Starting webserver (0025ms, 0027ms total)
T28D0 003:734 WEBSRV Webserver running on local port 19080 (0025ms, 0027ms total)
T28D0 003:734   returns O.K. (0025ms, 0027ms total)
T28D0 003:759 JLINK_GetEmuCaps()  returns 0xB9FF7BBF (0000ms, 0027ms total)
T28D0 003:759 JLINK_TIF_GetAvailable(...) (0000ms, 0027ms total)
T28D0 003:760 JLINK_SetErrorOutHandler(...) (0000ms, 0027ms total)
T28D0 003:760 JLINK_ExecCommand("ProjectFile = "C:\Users\qyg\Desktop\¹Ì¼þ¿âµçµÆ RTOS_v1.1\MDK\JLinkSettings.ini"", ...).   returns 0x00 (0006ms, 0033ms total)
T28D0 003:767 JLINK_ExecCommand("Device = GD32F450ZI", ...). Device "GD32F450ZI" selected.  returns 0x00 (0003ms, 0036ms total)
T28D0 003:770 JLINK_ExecCommand("DisableConnectionTimeout", ...).   returns 0x01 (0000ms, 0036ms total)
T28D0 003:770 JLINK_GetHardwareVersion()  returns 0x13880 (0000ms, 0036ms total)
T28D0 003:770 JLINK_GetDLLVersion()  returns 64600 (0000ms, 0036ms total)
T28D0 003:770 JLINK_GetFirmwareString(...) (0000ms, 0036ms total)
T28D0 003:775 JLINK_GetDLLVersion()  returns 64600 (0000ms, 0036ms total)
T28D0 003:775 JLINK_GetCompileDateTime() (0000ms, 0036ms total)
T28D0 003:779 JLINK_GetFirmwareString(...) (0000ms, 0036ms total)
T28D0 003:781 JLINK_GetHardwareVersion()  returns 0x13880 (0000ms, 0036ms total)
T28D0 003:789 JLINK_TIF_Select(JLINKARM_TIF_SWD)  returns 0x00 (0001ms, 0037ms total)
T28D0 003:790 JLINK_SetSpeed(50000) (0000ms, 0037ms total)
T28D0 003:790 JLINK_GetId() >0x10B TIF>Found SW-DP with ID 0x2BA01477 >0x0D TIF> >0x28 TIF> >0x0D TIF> >0x28 TIF> >0x0D TIF> >0x28 TIF> >0x0D TIF> >0x28 TIF> >0x0D TIF> >0x21 TIF> >0x0D TIF> >0x28 TIF>Scanning AP map to find all available APs >0x0D TIF> >0x28 TIF> >0x0D TIF> >0x21 TIF> >0x0D TIF> >0x21 TIF> >0x0D TIF> >0x28 TIF> >0x0D TIF> >0x21 TIF> >0x0D TIF> >0x21 TIF>AP[1]: Stopped AP scan as end of AP map has been reachedAP[0]: AHB-AP (IDR: 0x24770011)Iterating through AP map to find AHB-AP to use
 >0x42 TIF> >0x28 TIF> >0x0D TIF> >0x28 TIF> >0x0D TIF> >0x21 TIF> >0x0D TIF> >0x21 TIF> >0x42 TIF> >0x28 TIF> >0x0D TIF> >0x28 TIF> >0x0D TIF> >0x28 TIF> >0x0D TIF> >0x21 TIF> >0x0D TIF> >0x21 TIF>AP[0]: Core foundAP[0]: AHB-AP ROM base: 0xE00FF000 >0x0D TIF> >0x28 TIF> >0x0D TIF> >0x28 TIF> >0x0D TIF> >0x28 TIF> >0x0D TIF> >0x21 TIF> >0x0D TIF> >0x21 TIF>CPUID register: 0x410FC241. Implementer code: 0x41 (ARM)Found Cortex-M4 r0p1, Little endian. -- Max. mem block: 0x00002408
 -- CPU_ReadMem(4 bytes @ 0xE000EDF0) -- CPU_WriteMem(4 bytes @ 0xE000EDF0) -- CPU_ReadMem(4 bytes @ 0xE0002000)FPUnit: 6 code (BP) slots and 2 literal slots -- CPU_ReadMem(4 bytes @ 0xE000EDFC) -- CPU_WriteMem(4 bytes @ 0xE000EDFC) -- CPU_ReadMem(4 bytes @ 0xE0001000) -- CPU_WriteMem(4 bytes @ 0xE0001000) -- CPU_ReadMem(4 bytes @ 0xE000ED88) -- CPU_WriteMem(4 bytes @ 0xE000ED88) -- CPU_ReadMem(4 bytes @ 0xE000ED88) -- CPU_WriteMem(4 bytes @ 0xE000ED88)CoreSight components:ROMTbl[0] @ E00FF000
 -- CPU_ReadMem(16 bytes @ 0xE00FF000) -- CPU_ReadMem(16 bytes @ 0xE000EFF0) -- CPU_ReadMem(16 bytes @ 0xE000EFE0)ROMTbl[0][0]: E000E000, CID: B105E00D, PID: 000BB00C SCS-M7 -- CPU_ReadMem(16 bytes @ 0xE0001FF0) -- CPU_ReadMem(16 bytes @ 0xE0001FE0)ROMTbl[0][1]: E0001000, CID: B105E00D, PID: 003BB002 DWT -- CPU_ReadMem(16 bytes @ 0xE0002FF0) -- CPU_ReadMem(16 bytes @ 0xE0002FE0)ROMTbl[0][2]: E0002000, CID: B105E00D, PID: 002BB003 FPB -- CPU_ReadMem(16 bytes @ 0xE0000FF0)
 -- CPU_ReadMem(16 bytes @ 0xE0000FE0)ROMTbl[0][3]: E0000000, CID: B105E00D, PID: 003BB001 ITM -- CPU_ReadMem(16 bytes @ 0xE00FF010) -- CPU_ReadMem(16 bytes @ 0xE0040FF0) -- CPU_ReadMem(16 bytes @ 0xE0040FE0)ROMTbl[0][4]: E0040000, CID: B105900D, PID: 000BB9A1 TPIU -- CPU_ReadMem(16 bytes @ 0xE0041FF0) -- CPU_ReadMem(16 bytes @ 0xE0041FE0)ROMTbl[0][5]: E0041000, CID: 00000000, PID: 00000000 ??? >0x0D TIF> >0x21 TIF>  returns 0x2BA01477 (0176ms, 0213ms total)
T28D0 003:966 JLINK_GetDLLVersion()  returns 64600 (0000ms, 0213ms total)
T28D0 003:966 JLINK_CORE_GetFound()  returns 0xE0000FF (0000ms, 0213ms total)
T28D0 003:966 JLINK_GetDebugInfo(0x100 = JLINKARM_ROM_TABLE_ADDR_INDEX) -- Value=0xE00FF000  returns 0x00 (0000ms, 0213ms total)
T28D0 003:968 JLINK_GetDebugInfo(0x100 = JLINKARM_ROM_TABLE_ADDR_INDEX) -- Value=0xE00FF000  returns 0x00 (0000ms, 0213ms total)
T28D0 003:968 JLINK_GetDebugInfo(0x101 = JLINKARM_DEBUG_INFO_ETM_ADDR_INDEX) -- Value=0x00000000  returns 0x00 (0000ms, 0213ms total)
T28D0 003:968 JLINK_ReadMemEx(0xE0041FF0, 0x0010 Bytes, ..., Flags = 0x02000004) -- CPU_ReadMem(16 bytes @ 0xE0041FF0) - Data: 00 00 00 00 00 00 00 00 00 00 00 00 00 00 00 00  returns 0x10 (0002ms, 0215ms total)
T28D0 003:970 JLINK_GetDebugInfo(0x102 = JLINKARM_DEBUG_INFO_MTB_ADDR_INDEX) -- Value=0x00000000  returns 0x00 (0000ms, 0215ms total)
T28D0 003:970 JLINK_GetDebugInfo(0x103 = JLINKARM_DEBUG_INFO_TPIU_ADDR_INDEX) -- Value=0xE0040000  returns 0x00 (0000ms, 0215ms total)
T28D0 003:970 JLINK_GetDebugInfo(0x104 = JLINKARM_DEBUG_INFO_ITM_ADDR_INDEX) -- Value=0xE0000000  returns 0x00 (0000ms, 0215ms total)
T28D0 003:970 JLINK_GetDebugInfo(0x105 = JLINKARM_DEBUG_INFO_DWT_ADDR_INDEX) -- Value=0xE0001000  returns 0x00 (0000ms, 0215ms total)
T28D0 003:970 JLINK_GetDebugInfo(0x106 = JLINKARM_DEBUG_INFO_FPB_ADDR_INDEX) -- Value=0xE0002000  returns 0x00 (0000ms, 0215ms total)
T28D0 003:970 JLINK_GetDebugInfo(0x107 = JLINKARM_DEBUG_INFO_NVIC_ADDR_INDEX) -- Value=0xE000E000  returns 0x00 (0000ms, 0215ms total)
T28D0 003:970 JLINK_GetDebugInfo(0x10C = JLINKARM_DEBUG_INFO_DBG_ADDR_INDEX) -- Value=0xE000EDF0  returns 0x00 (0000ms, 0215ms total)
T28D0 003:970 JLINK_GetDebugInfo(0x01 = Unknown) -- Value=0x00000001  returns 0x00 (0000ms, 0215ms total)
T28D0 003:970 JLINK_ReadMemU32(0xE000ED00, 0x0001 Items, ...) -- CPU_ReadMem(4 bytes @ 0xE000ED00) - Data: 41 C2 0F 41  returns 1 (0000ms, 0215ms total)
T28D0 003:970 JLINK_GetDebugInfo(0x10F = JLINKARM_DEBUG_INFO_HAS_CORTEX_M_SECURITY_EXT_INDEX) -- Value=0x00000000  returns 0x00 (0000ms, 0215ms total)
T28D0 003:970 JLINK_SetResetType(JLINKARM_CM3_RESET_TYPE_NORMAL)  returns JLINKARM_CM3_RESET_TYPE_NORMAL (0000ms, 0215ms total)
T28D0 003:970 JLINK_Reset() -- CPU is running -- CPU_WriteMem(4 bytes @ 0xE000EDF0) -- CPU is running -- CPU_WriteMem(4 bytes @ 0xE000EDFC)Reset: Halt core after reset via DEMCR.VC_CORERESET. >0x35 TIF>Reset: Reset device via AIRCR.SYSRESETREQ. -- CPU is running -- CPU_WriteMem(4 bytes @ 0xE000ED0C) >0x0D TIF> >0x28 TIF> -- CPU_ReadMem(4 bytes @ 0xE000EDF0) -- CPU_ReadMem(4 bytes @ 0xE000EDF0) -- CPU is running -- CPU_WriteMem(4 bytes @ 0xE000EDF0) -- CPU is running -- CPU_WriteMem(4 bytes @ 0xE000EDFC)
 -- CPU_ReadMem(4 bytes @ 0xE000EDF0) -- CPU_WriteMem(4 bytes @ 0xE0002000) -- CPU_ReadMem(4 bytes @ 0xE000EDFC) -- CPU_ReadMem(4 bytes @ 0xE0001000) (0071ms, 0286ms total)
T28D0 004:041 JLINK_Halt()  returns 0x00 (0000ms, 0286ms total)
T28D0 004:041 JLINK_ReadMemU32(0xE000EDF0, 0x0001 Items, ...) -- CPU_ReadMem(4 bytes @ 0xE000EDF0) - Data: 03 00 03 00  returns 1 (0000ms, 0286ms total)
T28D0 004:041 JLINK_WriteU32(0xE000EDF0, 0xA05F0003) -- CPU_WriteMem(4 bytes @ 0xE000EDF0)  returns 0 (0002ms, 0288ms total)
T28D0 004:043 JLINK_WriteU32(0xE000EDFC, 0x01000000) -- CPU_WriteMem(4 bytes @ 0xE000EDFC)  returns 0 (0000ms, 0288ms total)
T28D0 004:051 JLINK_GetHWStatus(...)  returns 0x00 (0000ms, 0288ms total)
T28D0 004:057 JLINK_GetNumBPUnits(Type = 0xFFFFFF00)  returns 0x06 (0000ms, 0288ms total)
T28D0 004:057 JLINK_GetNumBPUnits(Type = 0xF0)  returns 0x2000 (0000ms, 0288ms total)
T28D0 004:057 JLINK_GetNumWPUnits()  returns 0x04 (0000ms, 0288ms total)
T28D0 004:061 JLINK_GetSpeed()  returns 0xFA0 (0000ms, 0288ms total)
T28D0 004:065 JLINK_ReadMemU32(0xE000E004, 0x0001 Items, ...) -- CPU_ReadMem(4 bytes @ 0xE000E004) - Data: 02 00 00 00  returns 1 (0001ms, 0289ms total)
T28D0 004:066 JLINK_ReadMemU32(0xE000E004, 0x0001 Items, ...) -- CPU_ReadMem(4 bytes @ 0xE000E004) - Data: 02 00 00 00  returns 1 (0000ms, 0289ms total)
T28D0 004:066 JLINK_WriteMemEx(0xE0001000, 0x001C Bytes, ..., Flags = 0x02000004) - Data: 01 00 00 00 00 00 00 00 00 00 00 00 00 00 00 00 ... -- CPU_WriteMem(28 bytes @ 0xE0001000)  returns 0x1C (0003ms, 0292ms total)
T28D0 004:069 JLINK_Halt()  returns 0x00 (0000ms, 0292ms total)
T28D0 004:069 JLINK_IsHalted()  returns TRUE (0000ms, 0292ms total)
T28D0 004:070 JLINK_WriteMem(0x20000000, 0x01D0 Bytes, ...) - Data: 00 BE 0A E0 0D 78 2D 06 68 40 08 24 40 00 00 D3 ... -- CPU_WriteMem(464 bytes @ 0x20000000)  returns 0x1D0 (0005ms, 0297ms total)
T28D0 004:075 JLINK_WriteReg(R0, 0x08000000)  returns 0x00 (0000ms, 0297ms total)
T28D0 004:075 JLINK_WriteReg(R1, 0x017D7840)  returns 0x00 (0000ms, 0297ms total)
T28D0 004:075 JLINK_WriteReg(R2, 0x00000001)  returns 0x00 (0000ms, 0297ms total)
T28D0 004:075 JLINK_WriteReg(R3, 0x00000000)  returns 0x00 (0000ms, 0297ms total)
T28D0 004:075 JLINK_WriteReg(R4, 0x00000000)  returns 0x00 (0000ms, 0297ms total)
T28D0 004:075 JLINK_WriteReg(R5, 0x00000000)  returns 0x00 (0000ms, 0297ms total)
T28D0 004:075 JLINK_WriteReg(R6, 0x00000000)  returns 0x00 (0000ms, 0297ms total)
T28D0 004:075 JLINK_WriteReg(R7, 0x00000000)  returns 0x00 (0000ms, 0297ms total)
T28D0 004:075 JLINK_WriteReg(R8, 0x00000000)  returns 0x00 (0000ms, 0297ms total)
T28D0 004:075 JLINK_WriteReg(R9, 0x200001CC)  returns 0x00 (0000ms, 0297ms total)
T28D0 004:075 JLINK_WriteReg(R10, 0x00000000)  returns 0x00 (0000ms, 0297ms total)
T28D0 004:075 JLINK_WriteReg(R11, 0x00000000)  returns 0x00 (0000ms, 0297ms total)
T28D0 004:075 JLINK_WriteReg(R12, 0x00000000)  returns 0x00 (0000ms, 0297ms total)
T28D0 004:075 JLINK_WriteReg(R13 (SP), 0x20001000)  returns 0x00 (0000ms, 0297ms total)
T28D0 004:075 JLINK_WriteReg(R14, 0x20000001)  returns 0x00 (0000ms, 0297ms total)
T28D0 004:075 JLINK_WriteReg(R15 (PC), 0x20000070)  returns 0x00 (0000ms, 0297ms total)
T28D0 004:075 JLINK_WriteReg(XPSR, 0x01000000)  returns 0x00 (0000ms, 0297ms total)
T28D0 004:075 JLINK_WriteReg(MSP, 0x20001000)  returns 0x00 (0000ms, 0297ms total)
T28D0 004:075 JLINK_WriteReg(PSP, 0x20001000)  returns 0x00 (0000ms, 0297ms total)
T28D0 004:075 JLINK_WriteReg(CFBP, 0x00000000)  returns 0x00 (0000ms, 0297ms total)
T28D0 004:075 JLINK_SetBPEx(Addr = 0x20000000, Type = 0xFFFFFFF2) -- CPU_ReadMem(2 bytes @ 0x20000000)  returns 0x00000001 (0001ms, 0298ms total)
T28D0 004:076 JLINK_Go() -- CPU_WriteMem(2 bytes @ 0x20000000) -- CPU_ReadMem(4 bytes @ 0xE0001000) -- CPU_WriteMem(4 bytes @ 0xE0002008) -- CPU_WriteMem(4 bytes @ 0xE000200C) -- CPU_WriteMem(4 bytes @ 0xE0002010) -- CPU_WriteMem(4 bytes @ 0xE0002014) -- CPU_WriteMem(4 bytes @ 0xE0002018) -- CPU_WriteMem(4 bytes @ 0xE000201C) -- CPU_WriteMem(4 bytes @ 0xE0001004) (0005ms, 0303ms total)
T28D0 004:081 JLINK_IsHalted() -- CPU_ReadMem(2 bytes @ 0x20000000)  returns TRUE (0003ms, 0306ms total)
T28D0 004:084 JLINK_ReadReg(R15 (PC))  returns 0x20000000 (0000ms, 0303ms total)
T28D0 004:084 JLINK_ClrBPEx(BPHandle = 0x00000001)  returns 0x00 (0000ms, 0303ms total)
T28D0 004:084 JLINK_ReadReg(R0)  returns 0x00000000 (0000ms, 0303ms total)
T28D0 004:085 JLINK_WriteReg(R0, 0x08000000)  returns 0x00 (0000ms, 0303ms total)
T28D0 004:085 JLINK_WriteReg(R1, 0x00004000)  returns 0x00 (0000ms, 0303ms total)
T28D0 004:085 JLINK_WriteReg(R2, 0x000000FF)  returns 0x00 (0000ms, 0303ms total)
T28D0 004:085 JLINK_WriteReg(R3, 0x00000000)  returns 0x00 (0000ms, 0303ms total)
T28D0 004:085 JLINK_WriteReg(R4, 0x00000000)  returns 0x00 (0000ms, 0303ms total)
T28D0 004:085 JLINK_WriteReg(R5, 0x00000000)  returns 0x00 (0000ms, 0303ms total)
T28D0 004:085 JLINK_WriteReg(R6, 0x00000000)  returns 0x00 (0000ms, 0303ms total)
T28D0 004:085 JLINK_WriteReg(R7, 0x00000000)  returns 0x00 (0000ms, 0303ms total)
T28D0 004:085 JLINK_WriteReg(R8, 0x00000000)  returns 0x00 (0000ms, 0303ms total)
T28D0 004:085 JLINK_WriteReg(R9, 0x200001CC)  returns 0x00 (0000ms, 0303ms total)
T28D0 004:085 JLINK_WriteReg(R10, 0x00000000)  returns 0x00 (0000ms, 0303ms total)
T28D0 004:085 JLINK_WriteReg(R11, 0x00000000)  returns 0x00 (0000ms, 0303ms total)
T28D0 004:085 JLINK_WriteReg(R12, 0x00000000)  returns 0x00 (0000ms, 0303ms total)
T28D0 004:085 JLINK_WriteReg(R13 (SP), 0x20001000)  returns 0x00 (0000ms, 0303ms total)
T28D0 004:085 JLINK_WriteReg(R14, 0x20000001)  returns 0x00 (0000ms, 0303ms total)
T28D0 004:085 JLINK_WriteReg(R15 (PC), 0x20000020)  returns 0x00 (0000ms, 0303ms total)
T28D0 004:085 JLINK_WriteReg(XPSR, 0x01000000)  returns 0x00 (0000ms, 0303ms total)
T28D0 004:085 JLINK_WriteReg(MSP, 0x20001000)  returns 0x00 (0000ms, 0303ms total)
T28D0 004:085 JLINK_WriteReg(PSP, 0x20001000)  returns 0x00 (0000ms, 0303ms total)
T28D0 004:085 JLINK_WriteReg(CFBP, 0x00000000)  returns 0x00 (0000ms, 0303ms total)
T28D0 004:085 JLINK_SetBPEx(Addr = 0x20000000, Type = 0xFFFFFFF2)  returns 0x00000002 (0000ms, 0303ms total)
T28D0 004:085 JLINK_Go() -- CPU_ReadMem(4 bytes @ 0xE0001000) (0004ms, 0307ms total)
T28D0 004:089 JLINK_IsHalted() -- CPU_ReadMem(2 bytes @ 0x20000000)  returns TRUE (0002ms, 0309ms total)
T28D0 004:091 JLINK_ReadReg(R15 (PC))  returns 0x20000000 (0000ms, 0307ms total)
T28D0 004:091 JLINK_ClrBPEx(BPHandle = 0x00000002)  returns 0x00 (0000ms, 0307ms total)
T28D0 004:091 JLINK_ReadReg(R0)  returns 0x00000001 (0000ms, 0307ms total)
T28D0 004:091 JLINK_WriteReg(R0, 0x08000000)  returns 0x00 (0000ms, 0307ms total)
T28D0 004:091 JLINK_WriteReg(R1, 0x00004000)  returns 0x00 (0000ms, 0307ms total)
T28D0 004:091 JLINK_WriteReg(R2, 0x000000FF)  returns 0x00 (0000ms, 0307ms total)
T28D0 004:091 JLINK_WriteReg(R3, 0x00000000)  returns 0x00 (0000ms, 0307ms total)
T28D0 004:091 JLINK_WriteReg(R4, 0x00000000)  returns 0x00 (0000ms, 0307ms total)
T28D0 004:091 JLINK_WriteReg(R5, 0x00000000)  returns 0x00 (0000ms, 0307ms total)
T28D0 004:091 JLINK_WriteReg(R6, 0x00000000)  returns 0x00 (0000ms, 0307ms total)
T28D0 004:091 JLINK_WriteReg(R7, 0x00000000)  returns 0x00 (0000ms, 0307ms total)
T28D0 004:091 JLINK_WriteReg(R8, 0x00000000)  returns 0x00 (0000ms, 0307ms total)
T28D0 004:091 JLINK_WriteReg(R9, 0x200001CC)  returns 0x00 (0000ms, 0307ms total)
T28D0 004:091 JLINK_WriteReg(R10, 0x00000000)  returns 0x00 (0000ms, 0307ms total)
T28D0 004:091 JLINK_WriteReg(R11, 0x00000000)  returns 0x00 (0000ms, 0307ms total)
T28D0 004:091 JLINK_WriteReg(R12, 0x00000000)  returns 0x00 (0000ms, 0307ms total)
T28D0 004:091 JLINK_WriteReg(R13 (SP), 0x20001000)  returns 0x00 (0000ms, 0307ms total)
T28D0 004:091 JLINK_WriteReg(R14, 0x20000001)  returns 0x00 (0000ms, 0307ms total)
T28D0 004:091 JLINK_WriteReg(R15 (PC), 0x20000100)  returns 0x00 (0000ms, 0307ms total)
T28D0 004:091 JLINK_WriteReg(XPSR, 0x01000000)  returns 0x00 (0000ms, 0307ms total)
T28D0 004:091 JLINK_WriteReg(MSP, 0x20001000)  returns 0x00 (0000ms, 0307ms total)
T28D0 004:091 JLINK_WriteReg(PSP, 0x20001000)  returns 0x00 (0000ms, 0307ms total)
T28D0 004:091 JLINK_WriteReg(CFBP, 0x00000000)  returns 0x00 (0000ms, 0307ms total)
T28D0 004:091 JLINK_SetBPEx(Addr = 0x20000000, Type = 0xFFFFFFF2)  returns 0x00000003 (0000ms, 0307ms total)
T28D0 004:091 JLINK_Go() -- CPU_ReadMem(4 bytes @ 0xE0001000) (0004ms, 0311ms total)
T28D0 004:095 JLINK_IsHalted()  returns FALSE (0000ms, 0311ms total)
T28D0 004:144 JLINK_IsHalted()  returns FALSE (0000ms, 0311ms total)
T28D0 004:147 JLINK_IsHalted()  returns FALSE (0000ms, 0311ms total)
T28D0 004:148 JLINK_IsHalted()  returns FALSE (0001ms, 0312ms total)
T28D0 004:150 JLINK_IsHalted()  returns FALSE (0001ms, 0312ms total)
T28D0 004:152 JLINK_IsHalted()  returns FALSE (0001ms, 0312ms total)
T28D0 004:154 JLINK_IsHalted()  returns FALSE (0001ms, 0312ms total)
T28D0 004:158 JLINK_IsHalted()  returns FALSE (0001ms, 0312ms total)
T28D0 004:160 JLINK_IsHalted()  returns FALSE (0000ms, 0311ms total)
T28D0 004:162 JLINK_IsHalted()  returns FALSE (0001ms, 0312ms total)
T28D0 004:164 JLINK_IsHalted()  returns FALSE (0001ms, 0312ms total)
T28D0 004:166 JLINK_IsHalted()  returns FALSE (0001ms, 0312ms total)
T28D0 004:168 JLINK_IsHalted()  returns FALSE (0000ms, 0311ms total)
T28D0 004:170 JLINK_IsHalted()  returns FALSE (0000ms, 0311ms total)
T28D0 004:172 JLINK_IsHalted()  returns FALSE (0001ms, 0312ms total)
T28D0 004:174 JLINK_IsHalted()  returns FALSE (0001ms, 0312ms total)
T28D0 004:176 JLINK_IsHalted()  returns FALSE (0001ms, 0312ms total)
T28D0 004:178 JLINK_IsHalted()  returns FALSE (0001ms, 0312ms total)
T28D0 004:180 JLINK_IsHalted()  returns FALSE (0001ms, 0312ms total)
T28D0 004:182 JLINK_IsHalted()  returns FALSE (0000ms, 0311ms total)
T28D0 004:184 JLINK_IsHalted()  returns FALSE (0001ms, 0312ms total)
T28D0 004:186 JLINK_IsHalted()  returns FALSE (0001ms, 0312ms total)
T28D0 004:188 JLINK_IsHalted()  returns FALSE (0000ms, 0311ms total)
T28D0 004:191 JLINK_IsHalted()  returns FALSE (0000ms, 0311ms total)
T28D0 004:193 JLINK_IsHalted()  returns FALSE (0000ms, 0311ms total)
T28D0 004:195 JLINK_IsHalted()  returns FALSE (0000ms, 0311ms total)
T28D0 004:197 JLINK_IsHalted()  returns FALSE (0000ms, 0311ms total)
T28D0 004:199 JLINK_IsHalted()  returns FALSE (0000ms, 0311ms total)
T28D0 004:201 JLINK_IsHalted()  returns FALSE (0000ms, 0311ms total)
T28D0 004:203 JLINK_IsHalted()  returns FALSE (0000ms, 0311ms total)
T28D0 004:205 JLINK_IsHalted()  returns FALSE (0001ms, 0312ms total)
T28D0 004:208 JLINK_IsHalted()  returns FALSE (0000ms, 0311ms total)
T28D0 004:210 JLINK_IsHalted()  returns FALSE (0000ms, 0311ms total)
T28D0 004:212 JLINK_IsHalted()  returns FALSE (0000ms, 0311ms total)
T28D0 004:214 JLINK_IsHalted()  returns FALSE (0000ms, 0311ms total)
T28D0 004:216 JLINK_IsHalted()  returns FALSE (0000ms, 0311ms total)
T28D0 004:218 JLINK_IsHalted()  returns FALSE (0000ms, 0311ms total)
T28D0 004:222 JLINK_IsHalted()  returns FALSE (0000ms, 0311ms total)
T28D0 004:224 JLINK_IsHalted()  returns FALSE (0001ms, 0312ms total)
T28D0 004:226 JLINK_IsHalted()  returns FALSE (0001ms, 0312ms total)
T28D0 004:228 JLINK_IsHalted()  returns FALSE (0000ms, 0311ms total)
T28D0 004:230 JLINK_IsHalted()  returns FALSE (0000ms, 0311ms total)
T28D0 004:232 JLINK_IsHalted()  returns FALSE (0000ms, 0311ms total)
T28D0 004:235 JLINK_IsHalted()  returns FALSE (0001ms, 0312ms total)
T28D0 004:238 JLINK_IsHalted()  returns FALSE (0000ms, 0311ms total)
T28D0 004:240 JLINK_IsHalted()  returns FALSE (0000ms, 0311ms total)
T28D0 004:242 JLINK_IsHalted()  returns FALSE (0000ms, 0311ms total)
T28D0 004:244 JLINK_IsHalted()  returns FALSE (0000ms, 0311ms total)
T28D0 004:246 JLINK_IsHalted()  returns FALSE (0000ms, 0311ms total)
T28D0 004:248 JLINK_IsHalted()  returns FALSE (0001ms, 0312ms total)
T28D0 004:250 JLINK_IsHalted()  returns FALSE (0001ms, 0312ms total)
T28D0 004:254 JLINK_IsHalted()  returns FALSE (0000ms, 0311ms total)
T28D0 004:256 JLINK_IsHalted()  returns FALSE (0000ms, 0311ms total)
T28D0 004:258 JLINK_IsHalted()  returns FALSE (0001ms, 0312ms total)
T28D0 004:260 JLINK_IsHalted()  returns FALSE (0001ms, 0312ms total)
T28D0 004:262 JLINK_IsHalted()  returns FALSE (0001ms, 0312ms total)
T28D0 004:264 JLINK_IsHalted()  returns FALSE (0001ms, 0312ms total)
T28D0 004:266 JLINK_IsHalted()  returns FALSE (0000ms, 0311ms total)
T28D0 004:268 JLINK_IsHalted()  returns FALSE (0000ms, 0311ms total)
T28D0 004:270 JLINK_IsHalted()  returns FALSE (0000ms, 0311ms total)
T28D0 004:272 JLINK_IsHalted()  returns FALSE (0001ms, 0312ms total)
T28D0 004:274 JLINK_IsHalted()  returns FALSE (0001ms, 0312ms total)
T28D0 004:276 JLINK_IsHalted()  returns FALSE (0001ms, 0312ms total)
T28D0 004:278 JLINK_IsHalted() -- CPU_ReadMem(2 bytes @ 0x20000000)  returns TRUE (0003ms, 0314ms total)
T28D0 004:281 JLINK_ReadReg(R15 (PC))  returns 0x20000000 (0000ms, 0311ms total)
T28D0 004:281 JLINK_ClrBPEx(BPHandle = 0x00000003)  returns 0x00 (0000ms, 0311ms total)
T28D0 004:281 JLINK_ReadReg(R0)  returns 0x00000000 (0000ms, 0311ms total)
T28D0 004:281 JLINK_WriteReg(R0, 0x00000001)  returns 0x00 (0000ms, 0311ms total)
T28D0 004:281 JLINK_WriteReg(R1, 0x00004000)  returns 0x00 (0000ms, 0311ms total)
T28D0 004:281 JLINK_WriteReg(R2, 0x000000FF)  returns 0x00 (0000ms, 0311ms total)
T28D0 004:281 JLINK_WriteReg(R3, 0x00000000)  returns 0x00 (0000ms, 0311ms total)
T28D0 004:281 JLINK_WriteReg(R4, 0x00000000)  returns 0x00 (0000ms, 0311ms total)
T28D0 004:281 JLINK_WriteReg(R5, 0x00000000)  returns 0x00 (0000ms, 0311ms total)
T28D0 004:281 JLINK_WriteReg(R6, 0x00000000)  returns 0x00 (0000ms, 0311ms total)
T28D0 004:281 JLINK_WriteReg(R7, 0x00000000)  returns 0x00 (0000ms, 0311ms total)
T28D0 004:281 JLINK_WriteReg(R8, 0x00000000)  returns 0x00 (0000ms, 0311ms total)
T28D0 004:281 JLINK_WriteReg(R9, 0x200001CC)  returns 0x00 (0000ms, 0311ms total)
T28D0 004:281 JLINK_WriteReg(R10, 0x00000000)  returns 0x00 (0000ms, 0311ms total)
T28D0 004:281 JLINK_WriteReg(R11, 0x00000000)  returns 0x00 (0000ms, 0311ms total)
T28D0 004:281 JLINK_WriteReg(R12, 0x00000000)  returns 0x00 (0000ms, 0311ms total)
T28D0 004:281 JLINK_WriteReg(R13 (SP), 0x20001000)  returns 0x00 (0000ms, 0311ms total)
T28D0 004:281 JLINK_WriteReg(R14, 0x20000001)  returns 0x00 (0000ms, 0311ms total)
T28D0 004:281 JLINK_WriteReg(R15 (PC), 0x200000AC)  returns 0x00 (0000ms, 0311ms total)
T28D0 004:281 JLINK_WriteReg(XPSR, 0x01000000)  returns 0x00 (0000ms, 0311ms total)
T28D0 004:281 JLINK_WriteReg(MSP, 0x20001000)  returns 0x00 (0000ms, 0311ms total)
T28D0 004:281 JLINK_WriteReg(PSP, 0x20001000)  returns 0x00 (0000ms, 0311ms total)
T28D0 004:281 JLINK_WriteReg(CFBP, 0x00000000)  returns 0x00 (0000ms, 0311ms total)
T28D0 004:281 JLINK_SetBPEx(Addr = 0x20000000, Type = 0xFFFFFFF2)  returns 0x00000004 (0000ms, 0311ms total)
T28D0 004:281 JLINK_Go() -- CPU_ReadMem(4 bytes @ 0xE0001000) (0004ms, 0315ms total)
T28D0 004:285 JLINK_IsHalted() -- CPU_ReadMem(2 bytes @ 0x20000000)  returns TRUE (0002ms, 0317ms total)
T28D0 004:287 JLINK_ReadReg(R15 (PC))  returns 0x20000000 (0000ms, 0315ms total)
T28D0 004:287 JLINK_ClrBPEx(BPHandle = 0x00000004)  returns 0x00 (0000ms, 0315ms total)
T28D0 004:287 JLINK_ReadReg(R0)  returns 0x00000000 (0000ms, 0315ms total)
T28D0 004:342 JLINK_WriteMem(0x20000000, 0x01D0 Bytes, ...) - Data: 00 BE 0A E0 0D 78 2D 06 68 40 08 24 40 00 00 D3 ... -- CPU_WriteMem(464 bytes @ 0x20000000)  returns 0x1D0 (0004ms, 0319ms total)
T28D0 004:346 JLINK_WriteReg(R0, 0x08000000)  returns 0x00 (0000ms, 0319ms total)
T28D0 004:346 JLINK_WriteReg(R1, 0x017D7840)  returns 0x00 (0000ms, 0319ms total)
T28D0 004:346 JLINK_WriteReg(R2, 0x00000002)  returns 0x00 (0000ms, 0319ms total)
T28D0 004:346 JLINK_WriteReg(R3, 0x00000000)  returns 0x00 (0000ms, 0319ms total)
T28D0 004:346 JLINK_WriteReg(R4, 0x00000000)  returns 0x00 (0000ms, 0319ms total)
T28D0 004:346 JLINK_WriteReg(R5, 0x00000000)  returns 0x00 (0000ms, 0319ms total)
T28D0 004:346 JLINK_WriteReg(R6, 0x00000000)  returns 0x00 (0000ms, 0319ms total)
T28D0 004:346 JLINK_WriteReg(R7, 0x00000000)  returns 0x00 (0000ms, 0319ms total)
T28D0 004:346 JLINK_WriteReg(R8, 0x00000000)  returns 0x00 (0000ms, 0319ms total)
T28D0 004:346 JLINK_WriteReg(R9, 0x200001CC)  returns 0x00 (0000ms, 0319ms total)
T28D0 004:346 JLINK_WriteReg(R10, 0x00000000)  returns 0x00 (0000ms, 0319ms total)
T28D0 004:346 JLINK_WriteReg(R11, 0x00000000)  returns 0x00 (0000ms, 0319ms total)
T28D0 004:346 JLINK_WriteReg(R12, 0x00000000)  returns 0x00 (0000ms, 0319ms total)
T28D0 004:346 JLINK_WriteReg(R13 (SP), 0x20001000)  returns 0x00 (0000ms, 0319ms total)
T28D0 004:346 JLINK_WriteReg(R14, 0x20000001)  returns 0x00 (0000ms, 0319ms total)
T28D0 004:346 JLINK_WriteReg(R15 (PC), 0x20000070)  returns 0x00 (0000ms, 0319ms total)
T28D0 004:346 JLINK_WriteReg(XPSR, 0x01000000)  returns 0x00 (0000ms, 0319ms total)
T28D0 004:346 JLINK_WriteReg(MSP, 0x20001000)  returns 0x00 (0000ms, 0319ms total)
T28D0 004:346 JLINK_WriteReg(PSP, 0x20001000)  returns 0x00 (0000ms, 0319ms total)
T28D0 004:346 JLINK_WriteReg(CFBP, 0x00000000)  returns 0x00 (0000ms, 0319ms total)
T28D0 004:346 JLINK_SetBPEx(Addr = 0x20000000, Type = 0xFFFFFFF2) -- CPU_ReadMem(2 bytes @ 0x20000000)  returns 0x00000005 (0000ms, 0319ms total)
T28D0 004:346 JLINK_Go() -- CPU_WriteMem(2 bytes @ 0x20000000) -- CPU_ReadMem(4 bytes @ 0xE0001000) (0004ms, 0323ms total)
T28D0 004:350 JLINK_IsHalted() -- CPU_ReadMem(2 bytes @ 0x20000000)  returns TRUE (0003ms, 0326ms total)
T28D0 004:353 JLINK_ReadReg(R15 (PC))  returns 0x20000000 (0000ms, 0323ms total)
T28D0 004:353 JLINK_ClrBPEx(BPHandle = 0x00000005)  returns 0x00 (0000ms, 0323ms total)
T28D0 004:353 JLINK_ReadReg(R0)  returns 0x00000000 (0000ms, 0323ms total)
T28D0 004:353 JLINK_WriteMem(0x200001D0, 0x0230 Bytes, ...) - Data: 10 36 01 20 05 03 00 08 AD 05 00 08 55 05 00 08 ... -- CPU_WriteMem(560 bytes @ 0x200001D0)  returns 0x230 (0004ms, 0327ms total)
T28D0 004:357 JLINK_WriteMem(0x20000400, 0x01D0 Bytes, ...) - Data: 11 46 FF F7 F5 FF 00 F0 5B FA 00 F0 73 F9 03 B4 ... -- CPU_WriteMem(464 bytes @ 0x20000400)  returns 0x1D0 (0005ms, 0332ms total)
T28D0 004:362 JLINK_WriteReg(R0, 0x08000000)  returns 0x00 (0000ms, 0332ms total)
T28D0 004:362 JLINK_WriteReg(R1, 0x00000400)  returns 0x00 (0000ms, 0332ms total)
T28D0 004:362 JLINK_WriteReg(R2, 0x200001D0)  returns 0x00 (0000ms, 0332ms total)
T28D0 004:362 JLINK_WriteReg(R3, 0x00000000)  returns 0x00 (0000ms, 0332ms total)
T28D0 004:362 JLINK_WriteReg(R4, 0x00000000)  returns 0x00 (0000ms, 0332ms total)
T28D0 004:362 JLINK_WriteReg(R5, 0x00000000)  returns 0x00 (0000ms, 0332ms total)
T28D0 004:362 JLINK_WriteReg(R6, 0x00000000)  returns 0x00 (0000ms, 0332ms total)
T28D0 004:362 JLINK_WriteReg(R7, 0x00000000)  returns 0x00 (0000ms, 0332ms total)
T28D0 004:362 JLINK_WriteReg(R8, 0x00000000)  returns 0x00 (0000ms, 0332ms total)
T28D0 004:362 JLINK_WriteReg(R9, 0x200001CC)  returns 0x00 (0000ms, 0332ms total)
T28D0 004:362 JLINK_WriteReg(R10, 0x00000000)  returns 0x00 (0000ms, 0332ms total)
T28D0 004:362 JLINK_WriteReg(R11, 0x00000000)  returns 0x00 (0000ms, 0332ms total)
T28D0 004:362 JLINK_WriteReg(R12, 0x00000000)  returns 0x00 (0000ms, 0332ms total)
T28D0 004:362 JLINK_WriteReg(R13 (SP), 0x20001000)  returns 0x00 (0000ms, 0332ms total)
T28D0 004:362 JLINK_WriteReg(R14, 0x20000001)  returns 0x00 (0000ms, 0332ms total)
T28D0 004:362 JLINK_WriteReg(R15 (PC), 0x20000158)  returns 0x00 (0000ms, 0332ms total)
T28D0 004:362 JLINK_WriteReg(XPSR, 0x01000000)  returns 0x00 (0000ms, 0332ms total)
T28D0 004:362 JLINK_WriteReg(MSP, 0x20001000)  returns 0x00 (0000ms, 0332ms total)
T28D0 004:362 JLINK_WriteReg(PSP, 0x20001000)  returns 0x00 (0000ms, 0332ms total)
T28D0 004:362 JLINK_WriteReg(CFBP, 0x00000000)  returns 0x00 (0000ms, 0332ms total)
T28D0 004:362 JLINK_SetBPEx(Addr = 0x20000000, Type = 0xFFFFFFF2)  returns 0x00000006 (0000ms, 0332ms total)
T28D0 004:362 JLINK_Go() -- CPU_ReadMem(4 bytes @ 0xE0001000) (0001ms, 0333ms total)
T28D0 004:365 JLINK_IsHalted()  returns FALSE (0000ms, 0333ms total)
T28D0 004:369 JLINK_IsHalted()  returns FALSE (0000ms, 0333ms total)
T28D0 004:371 JLINK_IsHalted()  returns FALSE (0000ms, 0333ms total)
T28D0 004:373 JLINK_IsHalted()  returns FALSE (0000ms, 0333ms total)
T28D0 004:375 JLINK_IsHalted()  returns FALSE (0000ms, 0333ms total)
T28D0 004:377 JLINK_IsHalted()  returns FALSE (0000ms, 0333ms total)
T28D0 004:379 JLINK_IsHalted()  returns FALSE (0000ms, 0333ms total)
T28D0 004:381 JLINK_IsHalted() -- CPU_ReadMem(2 bytes @ 0x20000000)  returns TRUE (0003ms, 0336ms total)
T28D0 004:384 JLINK_ReadReg(R15 (PC))  returns 0x20000000 (0000ms, 0333ms total)
T28D0 004:384 JLINK_ClrBPEx(BPHandle = 0x00000006)  returns 0x00 (0000ms, 0333ms total)
T28D0 004:384 JLINK_ReadReg(R0)  returns 0x00000000 (0000ms, 0333ms total)
T28D0 004:384 JLINK_WriteMem(0x200001D0, 0x0230 Bytes, ...) - Data: F5 AF 5F EA 02 7C 24 BF B1 E8 18 50 A0 E8 18 50 ... -- CPU_WriteMem(560 bytes @ 0x200001D0)  returns 0x230 (0005ms, 0338ms total)
T28D0 004:389 JLINK_WriteMem(0x20000400, 0x01D0 Bytes, ...) - Data: 08 60 08 1F 00 68 20 F4 80 20 09 1F 08 60 00 20 ... -- CPU_WriteMem(464 bytes @ 0x20000400)  returns 0x1D0 (0003ms, 0341ms total)
T28D0 004:392 JLINK_WriteReg(R0, 0x08000400)  returns 0x00 (0000ms, 0341ms total)
T28D0 004:392 JLINK_WriteReg(R1, 0x00000400)  returns 0x00 (0000ms, 0341ms total)
T28D0 004:392 JLINK_WriteReg(R2, 0x200001D0)  returns 0x00 (0000ms, 0341ms total)
T28D0 004:392 JLINK_WriteReg(R3, 0x00000000)  returns 0x00 (0000ms, 0341ms total)
T28D0 004:392 JLINK_WriteReg(R4, 0x00000000)  returns 0x00 (0000ms, 0341ms total)
T28D0 004:392 JLINK_WriteReg(R5, 0x00000000)  returns 0x00 (0000ms, 0341ms total)
T28D0 004:392 JLINK_WriteReg(R6, 0x00000000)  returns 0x00 (0000ms, 0341ms total)
T28D0 004:392 JLINK_WriteReg(R7, 0x00000000)  returns 0x00 (0000ms, 0341ms total)
T28D0 004:392 JLINK_WriteReg(R8, 0x00000000)  returns 0x00 (0000ms, 0341ms total)
T28D0 004:392 JLINK_WriteReg(R9, 0x200001CC)  returns 0x00 (0000ms, 0341ms total)
T28D0 004:392 JLINK_WriteReg(R10, 0x00000000)  returns 0x00 (0000ms, 0341ms total)
T28D0 004:392 JLINK_WriteReg(R11, 0x00000000)  returns 0x00 (0000ms, 0341ms total)
T28D0 004:392 JLINK_WriteReg(R12, 0x00000000)  returns 0x00 (0000ms, 0341ms total)
T28D0 004:392 JLINK_WriteReg(R13 (SP), 0x20001000)  returns 0x00 (0000ms, 0341ms total)
T28D0 004:392 JLINK_WriteReg(R14, 0x20000001)  returns 0x00 (0000ms, 0341ms total)
T28D0 004:392 JLINK_WriteReg(R15 (PC), 0x20000158)  returns 0x00 (0000ms, 0341ms total)
T28D0 004:392 JLINK_WriteReg(XPSR, 0x01000000)  returns 0x00 (0000ms, 0341ms total)
T28D0 004:392 JLINK_WriteReg(MSP, 0x20001000)  returns 0x00 (0000ms, 0341ms total)
T28D0 004:392 JLINK_WriteReg(PSP, 0x20001000)  returns 0x00 (0000ms, 0341ms total)
T28D0 004:392 JLINK_WriteReg(CFBP, 0x00000000)  returns 0x00 (0000ms, 0341ms total)
T28D0 004:392 JLINK_SetBPEx(Addr = 0x20000000, Type = 0xFFFFFFF2)  returns 0x00000007 (0000ms, 0341ms total)
T28D0 004:392 JLINK_Go() -- CPU_ReadMem(4 bytes @ 0xE0001000) (0001ms, 0342ms total)
T28D0 004:393 JLINK_IsHalted()  returns FALSE (0002ms, 0344ms total)
T28D0 004:399 JLINK_IsHalted()  returns FALSE (0000ms, 0342ms total)
T28D0 004:401 JLINK_IsHalted()  returns FALSE (0001ms, 0343ms total)
T28D0 004:403 JLINK_IsHalted()  returns FALSE (0001ms, 0343ms total)
T28D0 004:405 JLINK_IsHalted()  returns FALSE (0001ms, 0343ms total)
T28D0 004:407 JLINK_IsHalted()  returns FALSE (0001ms, 0343ms total)
T28D0 004:409 JLINK_IsHalted()  returns FALSE (0000ms, 0342ms total)
T28D0 004:412 JLINK_IsHalted() -- CPU_ReadMem(2 bytes @ 0x20000000)  returns TRUE (0002ms, 0344ms total)
T28D0 004:414 JLINK_ReadReg(R15 (PC))  returns 0x20000000 (0000ms, 0342ms total)
T28D0 004:414 JLINK_ClrBPEx(BPHandle = 0x00000007)  returns 0x00 (0000ms, 0342ms total)
T28D0 004:414 JLINK_ReadReg(R0)  returns 0x00000000 (0000ms, 0342ms total)
T28D0 004:414 JLINK_WriteMem(0x200001D0, 0x0230 Bytes, ...) - Data: 40 1C 18 49 08 60 08 46 00 68 20 64 94 F8 2C 10 ... -- CPU_WriteMem(560 bytes @ 0x200001D0)  returns 0x230 (0005ms, 0347ms total)
T28D0 004:419 JLINK_WriteMem(0x20000400, 0x01D0 Bytes, ...) - Data: 13 4C 04 1B 1B 1B 02 46 12 4C 22 60 00 24 11 4D ... -- CPU_WriteMem(464 bytes @ 0x20000400)  returns 0x1D0 (0003ms, 0350ms total)
T28D0 004:422 JLINK_WriteReg(R0, 0x08000800)  returns 0x00 (0000ms, 0350ms total)
T28D0 004:422 JLINK_WriteReg(R1, 0x00000400)  returns 0x00 (0000ms, 0350ms total)
T28D0 004:422 JLINK_WriteReg(R2, 0x200001D0)  returns 0x00 (0000ms, 0350ms total)
T28D0 004:422 JLINK_WriteReg(R3, 0x00000000)  returns 0x00 (0000ms, 0350ms total)
T28D0 004:422 JLINK_WriteReg(R4, 0x00000000)  returns 0x00 (0000ms, 0350ms total)
T28D0 004:422 JLINK_WriteReg(R5, 0x00000000)  returns 0x00 (0000ms, 0350ms total)
T28D0 004:422 JLINK_WriteReg(R6, 0x00000000)  returns 0x00 (0000ms, 0350ms total)
T28D0 004:422 JLINK_WriteReg(R7, 0x00000000)  returns 0x00 (0000ms, 0350ms total)
T28D0 004:422 JLINK_WriteReg(R8, 0x00000000)  returns 0x00 (0000ms, 0350ms total)
T28D0 004:422 JLINK_WriteReg(R9, 0x200001CC)  returns 0x00 (0000ms, 0350ms total)
T28D0 004:422 JLINK_WriteReg(R10, 0x00000000)  returns 0x00 (0000ms, 0350ms total)
T28D0 004:422 JLINK_WriteReg(R11, 0x00000000)  returns 0x00 (0000ms, 0350ms total)
T28D0 004:422 JLINK_WriteReg(R12, 0x00000000)  returns 0x00 (0000ms, 0350ms total)
T28D0 004:422 JLINK_WriteReg(R13 (SP), 0x20001000)  returns 0x00 (0000ms, 0350ms total)
T28D0 004:422 JLINK_WriteReg(R14, 0x20000001)  returns 0x00 (0000ms, 0350ms total)
T28D0 004:422 JLINK_WriteReg(R15 (PC), 0x20000158)  returns 0x00 (0000ms, 0350ms total)
T28D0 004:422 JLINK_WriteReg(XPSR, 0x01000000)  returns 0x00 (0000ms, 0350ms total)
T28D0 004:422 JLINK_WriteReg(MSP, 0x20001000)  returns 0x00 (0000ms, 0350ms total)
T28D0 004:422 JLINK_WriteReg(PSP, 0x20001000)  returns 0x00 (0000ms, 0350ms total)
T28D0 004:422 JLINK_WriteReg(CFBP, 0x00000000)  returns 0x00 (0000ms, 0350ms total)
T28D0 004:422 JLINK_SetBPEx(Addr = 0x20000000, Type = 0xFFFFFFF2)  returns 0x00000008 (0000ms, 0350ms total)
T28D0 004:422 JLINK_Go() -- CPU_ReadMem(4 bytes @ 0xE0001000) (0003ms, 0353ms total)
T28D0 004:425 JLINK_IsHalted()  returns FALSE (0001ms, 0354ms total)
T28D0 004:427 JLINK_IsHalted()  returns FALSE (0001ms, 0354ms total)
T28D0 004:429 JLINK_IsHalted()  returns FALSE (0000ms, 0353ms total)
T28D0 004:431 JLINK_IsHalted()  returns FALSE (0000ms, 0353ms total)
T28D0 004:433 JLINK_IsHalted()  returns FALSE (0001ms, 0354ms total)
T28D0 004:435 JLINK_IsHalted()  returns FALSE (0000ms, 0353ms total)
T28D0 004:437 JLINK_IsHalted()  returns FALSE (0001ms, 0354ms total)
T28D0 004:439 JLINK_IsHalted()  returns FALSE (0000ms, 0353ms total)
T28D0 004:441 JLINK_IsHalted() -- CPU_ReadMem(2 bytes @ 0x20000000)  returns TRUE (0003ms, 0356ms total)
T28D0 004:444 JLINK_ReadReg(R15 (PC))  returns 0x20000000 (0000ms, 0353ms total)
T28D0 004:444 JLINK_ClrBPEx(BPHandle = 0x00000008)  returns 0x00 (0000ms, 0353ms total)
T28D0 004:444 JLINK_ReadReg(R0)  returns 0x00000000 (0000ms, 0353ms total)
T28D0 004:444 JLINK_WriteMem(0x200001D0, 0x0230 Bytes, ...) - Data: 0C 00 00 20 10 00 00 20 10 B5 01 46 16 48 00 E0 ... -- CPU_WriteMem(560 bytes @ 0x200001D0)  returns 0x230 (0004ms, 0357ms total)
T28D0 004:448 JLINK_WriteMem(0x20000400, 0x01D0 Bytes, ...) - Data: 1F FF 04 E0 20 46 00 F0 31 FB 00 E0 00 BF 00 BF ... -- CPU_WriteMem(464 bytes @ 0x20000400)  returns 0x1D0 (0003ms, 0360ms total)
T28D0 004:451 JLINK_WriteReg(R0, 0x08000C00)  returns 0x00 (0000ms, 0360ms total)
T28D0 004:451 JLINK_WriteReg(R1, 0x00000400)  returns 0x00 (0000ms, 0360ms total)
T28D0 004:451 JLINK_WriteReg(R2, 0x200001D0)  returns 0x00 (0000ms, 0360ms total)
T28D0 004:451 JLINK_WriteReg(R3, 0x00000000)  returns 0x00 (0000ms, 0360ms total)
T28D0 004:451 JLINK_WriteReg(R4, 0x00000000)  returns 0x00 (0000ms, 0360ms total)
T28D0 004:451 JLINK_WriteReg(R5, 0x00000000)  returns 0x00 (0000ms, 0360ms total)
T28D0 004:451 JLINK_WriteReg(R6, 0x00000000)  returns 0x00 (0000ms, 0360ms total)
T28D0 004:451 JLINK_WriteReg(R7, 0x00000000)  returns 0x00 (0000ms, 0360ms total)
T28D0 004:451 JLINK_WriteReg(R8, 0x00000000)  returns 0x00 (0000ms, 0360ms total)
T28D0 004:451 JLINK_WriteReg(R9, 0x200001CC)  returns 0x00 (0000ms, 0360ms total)
T28D0 004:451 JLINK_WriteReg(R10, 0x00000000)  returns 0x00 (0000ms, 0360ms total)
T28D0 004:451 JLINK_WriteReg(R11, 0x00000000)  returns 0x00 (0000ms, 0360ms total)
T28D0 004:451 JLINK_WriteReg(R12, 0x00000000)  returns 0x00 (0000ms, 0360ms total)
T28D0 004:451 JLINK_WriteReg(R13 (SP), 0x20001000)  returns 0x00 (0000ms, 0360ms total)
T28D0 004:451 JLINK_WriteReg(R14, 0x20000001)  returns 0x00 (0000ms, 0360ms total)
T28D0 004:451 JLINK_WriteReg(R15 (PC), 0x20000158)  returns 0x00 (0000ms, 0360ms total)
T28D0 004:451 JLINK_WriteReg(XPSR, 0x01000000)  returns 0x00 (0000ms, 0360ms total)
T28D0 004:451 JLINK_WriteReg(MSP, 0x20001000)  returns 0x00 (0000ms, 0360ms total)
T28D0 004:451 JLINK_WriteReg(PSP, 0x20001000)  returns 0x00 (0000ms, 0360ms total)
T28D0 004:451 JLINK_WriteReg(CFBP, 0x00000000)  returns 0x00 (0000ms, 0360ms total)
T28D0 004:451 JLINK_SetBPEx(Addr = 0x20000000, Type = 0xFFFFFFF2)  returns 0x00000009 (0000ms, 0360ms total)
T28D0 004:451 JLINK_Go() -- CPU_ReadMem(4 bytes @ 0xE0001000) (0004ms, 0364ms total)
T28D0 004:455 JLINK_IsHalted()  returns FALSE (0000ms, 0364ms total)
T28D0 004:458 JLINK_IsHalted()  returns FALSE (0000ms, 0364ms total)
T28D0 004:460 JLINK_IsHalted()  returns FALSE (0000ms, 0364ms total)
T28D0 004:463 JLINK_IsHalted()  returns FALSE (0000ms, 0364ms total)
T28D0 004:465 JLINK_IsHalted()  returns FALSE (0000ms, 0364ms total)
T28D0 004:467 JLINK_IsHalted()  returns FALSE (0000ms, 0364ms total)
T28D0 004:469 JLINK_IsHalted()  returns FALSE (0001ms, 0365ms total)
T28D0 004:471 JLINK_IsHalted() -- CPU_ReadMem(2 bytes @ 0x20000000)  returns TRUE (0003ms, 0367ms total)
T28D0 004:474 JLINK_ReadReg(R15 (PC))  returns 0x20000000 (0000ms, 0364ms total)
T28D0 004:474 JLINK_ClrBPEx(BPHandle = 0x00000009)  returns 0x00 (0000ms, 0364ms total)
T28D0 004:474 JLINK_ReadReg(R0)  returns 0x00000000 (0000ms, 0364ms total)
T28D0 004:474 JLINK_WriteMem(0x200001D0, 0x0230 Bytes, ...) - Data: 4F 8F BF F3 6F 8F 00 BF 00 BF FE E7 70 00 00 20 ... -- CPU_WriteMem(560 bytes @ 0x200001D0)  returns 0x230 (0004ms, 0368ms total)
T28D0 004:478 JLINK_WriteMem(0x20000400, 0x01D0 Bytes, ...) - Data: 07 4A 02 EB 90 11 D1 F8 00 18 00 F0 1F 03 01 22 ... -- CPU_WriteMem(464 bytes @ 0x20000400)  returns 0x1D0 (0004ms, 0372ms total)
T28D0 004:482 JLINK_WriteReg(R0, 0x08001000)  returns 0x00 (0000ms, 0372ms total)
T28D0 004:482 JLINK_WriteReg(R1, 0x00000400)  returns 0x00 (0000ms, 0372ms total)
T28D0 004:482 JLINK_WriteReg(R2, 0x200001D0)  returns 0x00 (0000ms, 0372ms total)
T28D0 004:482 JLINK_WriteReg(R3, 0x00000000)  returns 0x00 (0000ms, 0372ms total)
T28D0 004:482 JLINK_WriteReg(R4, 0x00000000)  returns 0x00 (0000ms, 0372ms total)
T28D0 004:482 JLINK_WriteReg(R5, 0x00000000)  returns 0x00 (0000ms, 0372ms total)
T28D0 004:482 JLINK_WriteReg(R6, 0x00000000)  returns 0x00 (0000ms, 0372ms total)
T28D0 004:482 JLINK_WriteReg(R7, 0x00000000)  returns 0x00 (0000ms, 0372ms total)
T28D0 004:482 JLINK_WriteReg(R8, 0x00000000)  returns 0x00 (0000ms, 0372ms total)
T28D0 004:482 JLINK_WriteReg(R9, 0x200001CC)  returns 0x00 (0000ms, 0372ms total)
T28D0 004:482 JLINK_WriteReg(R10, 0x00000000)  returns 0x00 (0000ms, 0372ms total)
T28D0 004:482 JLINK_WriteReg(R11, 0x00000000)  returns 0x00 (0000ms, 0372ms total)
T28D0 004:482 JLINK_WriteReg(R12, 0x00000000)  returns 0x00 (0000ms, 0372ms total)
T28D0 004:482 JLINK_WriteReg(R13 (SP), 0x20001000)  returns 0x00 (0000ms, 0372ms total)
T28D0 004:482 JLINK_WriteReg(R14, 0x20000001)  returns 0x00 (0000ms, 0372ms total)
T28D0 004:482 JLINK_WriteReg(R15 (PC), 0x20000158)  returns 0x00 (0000ms, 0372ms total)
T28D0 004:482 JLINK_WriteReg(XPSR, 0x01000000)  returns 0x00 (0000ms, 0372ms total)
T28D0 004:482 JLINK_WriteReg(MSP, 0x20001000)  returns 0x00 (0000ms, 0372ms total)
T28D0 004:482 JLINK_WriteReg(PSP, 0x20001000)  returns 0x00 (0000ms, 0372ms total)
T28D0 004:482 JLINK_WriteReg(CFBP, 0x00000000)  returns 0x00 (0000ms, 0372ms total)
T28D0 004:482 JLINK_SetBPEx(Addr = 0x20000000, Type = 0xFFFFFFF2)  returns 0x0000000A (0000ms, 0372ms total)
T28D0 004:482 JLINK_Go() -- CPU_ReadMem(4 bytes @ 0xE0001000) (0004ms, 0376ms total)
T28D0 004:486 JLINK_IsHalted()  returns FALSE (0000ms, 0376ms total)
T28D0 004:487 JLINK_IsHalted()  returns FALSE (0001ms, 0377ms total)
T28D0 004:489 JLINK_IsHalted()  returns FALSE (0000ms, 0376ms total)
T28D0 004:491 JLINK_IsHalted()  returns FALSE (0000ms, 0376ms total)
T28D0 004:493 JLINK_IsHalted()  returns FALSE (0000ms, 0376ms total)
T28D0 004:495 JLINK_IsHalted()  returns FALSE (0000ms, 0376ms total)
T28D0 004:497 JLINK_IsHalted()  returns FALSE (0000ms, 0376ms total)
T28D0 004:499 JLINK_IsHalted()  returns FALSE (0000ms, 0376ms total)
T28D0 004:501 JLINK_IsHalted() -- CPU_ReadMem(2 bytes @ 0x20000000)  returns TRUE (0003ms, 0379ms total)
T28D0 004:504 JLINK_ReadReg(R15 (PC))  returns 0x20000000 (0000ms, 0376ms total)
T28D0 004:504 JLINK_ClrBPEx(BPHandle = 0x0000000A)  returns 0x00 (0000ms, 0376ms total)
T28D0 004:504 JLINK_ReadReg(R0)  returns 0x00000000 (0000ms, 0376ms total)
T28D0 004:504 JLINK_WriteMem(0x200001D0, 0x0230 Bytes, ...) - Data: 91 60 08 61 03 68 5B 1C 03 60 70 47 00 BF 50 20 ... -- CPU_WriteMem(560 bytes @ 0x200001D0)  returns 0x230 (0004ms, 0380ms total)
T28D0 004:508 JLINK_WriteMem(0x20000400, 0x01D0 Bytes, ...) - Data: 00 F0 56 F8 20 46 FF F7 F8 FC BD E8 F0 81 00 00 ... -- CPU_WriteMem(464 bytes @ 0x20000400)  returns 0x1D0 (0004ms, 0384ms total)
T28D0 004:512 JLINK_WriteReg(R0, 0x08001400)  returns 0x00 (0000ms, 0384ms total)
T28D0 004:512 JLINK_WriteReg(R1, 0x00000400)  returns 0x00 (0000ms, 0384ms total)
T28D0 004:512 JLINK_WriteReg(R2, 0x200001D0)  returns 0x00 (0000ms, 0384ms total)
T28D0 004:512 JLINK_WriteReg(R3, 0x00000000)  returns 0x00 (0000ms, 0384ms total)
T28D0 004:512 JLINK_WriteReg(R4, 0x00000000)  returns 0x00 (0000ms, 0384ms total)
T28D0 004:512 JLINK_WriteReg(R5, 0x00000000)  returns 0x00 (0000ms, 0384ms total)
T28D0 004:512 JLINK_WriteReg(R6, 0x00000000)  returns 0x00 (0000ms, 0384ms total)
T28D0 004:512 JLINK_WriteReg(R7, 0x00000000)  returns 0x00 (0000ms, 0384ms total)
T28D0 004:512 JLINK_WriteReg(R8, 0x00000000)  returns 0x00 (0000ms, 0384ms total)
T28D0 004:512 JLINK_WriteReg(R9, 0x200001CC)  returns 0x00 (0000ms, 0384ms total)
T28D0 004:512 JLINK_WriteReg(R10, 0x00000000)  returns 0x00 (0000ms, 0384ms total)
T28D0 004:512 JLINK_WriteReg(R11, 0x00000000)  returns 0x00 (0000ms, 0384ms total)
T28D0 004:512 JLINK_WriteReg(R12, 0x00000000)  returns 0x00 (0000ms, 0384ms total)
T28D0 004:512 JLINK_WriteReg(R13 (SP), 0x20001000)  returns 0x00 (0000ms, 0384ms total)
T28D0 004:512 JLINK_WriteReg(R14, 0x20000001)  returns 0x00 (0000ms, 0384ms total)
T28D0 004:512 JLINK_WriteReg(R15 (PC), 0x20000158)  returns 0x00 (0000ms, 0384ms total)
T28D0 004:512 JLINK_WriteReg(XPSR, 0x01000000)  returns 0x00 (0000ms, 0384ms total)
T28D0 004:512 JLINK_WriteReg(MSP, 0x20001000)  returns 0x00 (0000ms, 0384ms total)
T28D0 004:512 JLINK_WriteReg(PSP, 0x20001000)  returns 0x00 (0000ms, 0384ms total)
T28D0 004:512 JLINK_WriteReg(CFBP, 0x00000000)  returns 0x00 (0000ms, 0384ms total)
T28D0 004:512 JLINK_SetBPEx(Addr = 0x20000000, Type = 0xFFFFFFF2)  returns 0x0000000B (0000ms, 0384ms total)
T28D0 004:512 JLINK_Go() -- CPU_ReadMem(4 bytes @ 0xE0001000) (0003ms, 0387ms total)
T28D0 004:515 JLINK_IsHalted()  returns FALSE (0001ms, 0388ms total)
T28D0 004:518 JLINK_IsHalted()  returns FALSE (0000ms, 0387ms total)
T28D0 004:520 JLINK_IsHalted()  returns FALSE (0000ms, 0387ms total)
T28D0 004:522 JLINK_IsHalted()  returns FALSE (0000ms, 0387ms total)
T28D0 004:524 JLINK_IsHalted()  returns FALSE (0000ms, 0387ms total)
T28D0 004:525 JLINK_IsHalted()  returns FALSE (0000ms, 0387ms total)
T28D0 004:527 JLINK_IsHalted()  returns FALSE (0001ms, 0388ms total)
T28D0 004:529 JLINK_IsHalted()  returns FALSE (0001ms, 0388ms total)
T28D0 004:531 JLINK_IsHalted() -- CPU_ReadMem(2 bytes @ 0x20000000)  returns TRUE (0004ms, 0391ms total)
T28D0 004:535 JLINK_ReadReg(R15 (PC))  returns 0x20000000 (0000ms, 0387ms total)
T28D0 004:535 JLINK_ClrBPEx(BPHandle = 0x0000000B)  returns 0x00 (0000ms, 0387ms total)
T28D0 004:535 JLINK_ReadReg(R0)  returns 0x00000000 (0000ms, 0387ms total)
T28D0 004:535 JLINK_WriteMem(0x200001D0, 0x0230 Bytes, ...) - Data: 1C B5 1D 48 00 21 0B 46 82 22 CD E9 00 10 1B A1 ... -- CPU_WriteMem(560 bytes @ 0x200001D0)  returns 0x230 (0004ms, 0391ms total)
T28D0 004:539 JLINK_WriteMem(0x20000400, 0x01D0 Bytes, ...) - Data: 7F FD 00 20 0B 49 08 60 FE F7 28 FC 0A 48 00 68 ... -- CPU_WriteMem(464 bytes @ 0x20000400)  returns 0x1D0 (0003ms, 0394ms total)
T28D0 004:542 JLINK_WriteReg(R0, 0x08001800)  returns 0x00 (0000ms, 0394ms total)
T28D0 004:542 JLINK_WriteReg(R1, 0x00000400)  returns 0x00 (0000ms, 0394ms total)
T28D0 004:542 JLINK_WriteReg(R2, 0x200001D0)  returns 0x00 (0000ms, 0394ms total)
T28D0 004:542 JLINK_WriteReg(R3, 0x00000000)  returns 0x00 (0000ms, 0394ms total)
T28D0 004:542 JLINK_WriteReg(R4, 0x00000000)  returns 0x00 (0000ms, 0394ms total)
T28D0 004:542 JLINK_WriteReg(R5, 0x00000000)  returns 0x00 (0000ms, 0394ms total)
T28D0 004:542 JLINK_WriteReg(R6, 0x00000000)  returns 0x00 (0000ms, 0394ms total)
T28D0 004:542 JLINK_WriteReg(R7, 0x00000000)  returns 0x00 (0000ms, 0394ms total)
T28D0 004:542 JLINK_WriteReg(R8, 0x00000000)  returns 0x00 (0000ms, 0394ms total)
T28D0 004:542 JLINK_WriteReg(R9, 0x200001CC)  returns 0x00 (0000ms, 0394ms total)
T28D0 004:542 JLINK_WriteReg(R10, 0x00000000)  returns 0x00 (0000ms, 0394ms total)
T28D0 004:542 JLINK_WriteReg(R11, 0x00000000)  returns 0x00 (0000ms, 0394ms total)
T28D0 004:542 JLINK_WriteReg(R12, 0x00000000)  returns 0x00 (0000ms, 0394ms total)
T28D0 004:542 JLINK_WriteReg(R13 (SP), 0x20001000)  returns 0x00 (0000ms, 0394ms total)
T28D0 004:542 JLINK_WriteReg(R14, 0x20000001)  returns 0x00 (0000ms, 0394ms total)
T28D0 004:542 JLINK_WriteReg(R15 (PC), 0x20000158)  returns 0x00 (0000ms, 0394ms total)
T28D0 004:542 JLINK_WriteReg(XPSR, 0x01000000)  returns 0x00 (0000ms, 0394ms total)
T28D0 004:542 JLINK_WriteReg(MSP, 0x20001000)  returns 0x00 (0000ms, 0394ms total)
T28D0 004:542 JLINK_WriteReg(PSP, 0x20001000)  returns 0x00 (0000ms, 0394ms total)
T28D0 004:542 JLINK_WriteReg(CFBP, 0x00000000)  returns 0x00 (0000ms, 0394ms total)
T28D0 004:542 JLINK_SetBPEx(Addr = 0x20000000, Type = 0xFFFFFFF2)  returns 0x0000000C (0000ms, 0394ms total)
T28D0 004:542 JLINK_Go() -- CPU_ReadMem(4 bytes @ 0xE0001000) (0004ms, 0398ms total)
T28D0 004:546 JLINK_IsHalted()  returns FALSE (0000ms, 0398ms total)
T28D0 004:547 JLINK_IsHalted()  returns FALSE (0000ms, 0398ms total)
T28D0 004:549 JLINK_IsHalted()  returns FALSE (0001ms, 0399ms total)
T28D0 004:551 JLINK_IsHalted()  returns FALSE (0001ms, 0399ms total)
T28D0 004:553 JLINK_IsHalted()  returns FALSE (0001ms, 0399ms total)
T28D0 004:555 JLINK_IsHalted()  returns FALSE (0000ms, 0398ms total)
T28D0 004:558 JLINK_IsHalted()  returns FALSE (0000ms, 0398ms total)
T28D0 004:560 JLINK_IsHalted()  returns FALSE (0000ms, 0398ms total)
T28D0 004:562 JLINK_IsHalted() -- CPU_ReadMem(2 bytes @ 0x20000000)  returns TRUE (0002ms, 0400ms total)
T28D0 004:564 JLINK_ReadReg(R15 (PC))  returns 0x20000000 (0000ms, 0398ms total)
T28D0 004:564 JLINK_ClrBPEx(BPHandle = 0x0000000C)  returns 0x00 (0000ms, 0398ms total)
T28D0 004:564 JLINK_ReadReg(R0)  returns 0x00000000 (0000ms, 0398ms total)
T28D0 004:564 JLINK_WriteMem(0x200001D0, 0x0230 Bytes, ...) - Data: 40 1C 10 B9 00 20 84 F8 45 00 FF F7 29 FC 04 A9 ... -- CPU_WriteMem(560 bytes @ 0x200001D0)  returns 0x230 (0005ms, 0403ms total)
T28D0 004:569 JLINK_WriteMem(0x20000400, 0x01D0 Bytes, ...) - Data: F6 E7 B9 F1 00 0F 04 D1 01 A8 FF F7 C9 FC 4F F0 ... -- CPU_WriteMem(464 bytes @ 0x20000400)  returns 0x1D0 (0003ms, 0406ms total)
T28D0 004:572 JLINK_WriteReg(R0, 0x08001C00)  returns 0x00 (0000ms, 0406ms total)
T28D0 004:572 JLINK_WriteReg(R1, 0x00000400)  returns 0x00 (0000ms, 0406ms total)
T28D0 004:572 JLINK_WriteReg(R2, 0x200001D0)  returns 0x00 (0000ms, 0406ms total)
T28D0 004:572 JLINK_WriteReg(R3, 0x00000000)  returns 0x00 (0000ms, 0406ms total)
T28D0 004:572 JLINK_WriteReg(R4, 0x00000000)  returns 0x00 (0000ms, 0406ms total)
T28D0 004:572 JLINK_WriteReg(R5, 0x00000000)  returns 0x00 (0000ms, 0406ms total)
T28D0 004:572 JLINK_WriteReg(R6, 0x00000000)  returns 0x00 (0000ms, 0406ms total)
T28D0 004:572 JLINK_WriteReg(R7, 0x00000000)  returns 0x00 (0000ms, 0406ms total)
T28D0 004:572 JLINK_WriteReg(R8, 0x00000000)  returns 0x00 (0000ms, 0406ms total)
T28D0 004:572 JLINK_WriteReg(R9, 0x200001CC)  returns 0x00 (0000ms, 0406ms total)
T28D0 004:572 JLINK_WriteReg(R10, 0x00000000)  returns 0x00 (0000ms, 0406ms total)
T28D0 004:572 JLINK_WriteReg(R11, 0x00000000)  returns 0x00 (0000ms, 0406ms total)
T28D0 004:572 JLINK_WriteReg(R12, 0x00000000)  returns 0x00 (0000ms, 0406ms total)
T28D0 004:572 JLINK_WriteReg(R13 (SP), 0x20001000)  returns 0x00 (0000ms, 0406ms total)
T28D0 004:572 JLINK_WriteReg(R14, 0x20000001)  returns 0x00 (0000ms, 0406ms total)
T28D0 004:572 JLINK_WriteReg(R15 (PC), 0x20000158)  returns 0x00 (0000ms, 0406ms total)
T28D0 004:572 JLINK_WriteReg(XPSR, 0x01000000)  returns 0x00 (0000ms, 0406ms total)
T28D0 004:572 JLINK_WriteReg(MSP, 0x20001000)  returns 0x00 (0000ms, 0406ms total)
T28D0 004:572 JLINK_WriteReg(PSP, 0x20001000)  returns 0x00 (0000ms, 0406ms total)
T28D0 004:572 JLINK_WriteReg(CFBP, 0x00000000)  returns 0x00 (0000ms, 0406ms total)
T28D0 004:572 JLINK_SetBPEx(Addr = 0x20000000, Type = 0xFFFFFFF2)  returns 0x0000000D (0000ms, 0406ms total)
T28D0 004:572 JLINK_Go() -- CPU_ReadMem(4 bytes @ 0xE0001000) (0002ms, 0408ms total)
T28D0 004:576 JLINK_IsHalted()  returns FALSE (0000ms, 0408ms total)
T28D0 004:579 JLINK_IsHalted()  returns FALSE (0000ms, 0408ms total)
T28D0 004:580 JLINK_IsHalted()  returns FALSE (0000ms, 0408ms total)
T28D0 004:583 JLINK_IsHalted()  returns FALSE (0000ms, 0408ms total)
T28D0 004:585 JLINK_IsHalted()  returns FALSE (0000ms, 0408ms total)
T28D0 004:587 JLINK_IsHalted()  returns FALSE (0000ms, 0408ms total)
T28D0 004:589 JLINK_IsHalted()  returns FALSE (0000ms, 0408ms total)
T28D0 004:591 JLINK_IsHalted() -- CPU_ReadMem(2 bytes @ 0x20000000)  returns TRUE (0003ms, 0411ms total)
T28D0 004:594 JLINK_ReadReg(R15 (PC))  returns 0x20000000 (0000ms, 0408ms total)
T28D0 004:594 JLINK_ClrBPEx(BPHandle = 0x0000000D)  returns 0x00 (0000ms, 0408ms total)
T28D0 004:594 JLINK_ReadReg(R0)  returns 0x00000000 (0000ms, 0408ms total)
